
T2894 000:338 SEGGER J-Link V5.12 Log File (0008ms, 0288ms total)
T2894 000:338 DLL Compiled: Mar 30 2016 17:28:31 (0008ms, 0288ms total)
T2894 000:338 Logging started @ 2018-03-05 09:54 (0008ms, 0288ms total)
T2894 000:346 JLINK_SetWarnOutHandler(...) (0001ms, 0289ms total)
T2894 000:347 JLINK_OpenEx(...)
Firmware: J-Link V9 compiled Jun  2 2222 22:22:22
Hardware: V9.40
S/N: 59401308
Feature(s): GDB, RDI, FlashBP, FlashDL, JFlash, RDDI  returns O.K. (0277ms, 0566ms total)
T2894 000:624 JLINK_SetErrorOutHandler(...) (0000ms, 0566ms total)
T2894 000:625 JLINK_ExecCommand("ProjectFile = "E:\work_src\蓝牙笔\WWT-PAX-0001\5 程序设计\下位机\ResearchStage\MH1903\ModuleDemo\MIPIFunctionTestPrj\MIPITestWithLCD\Project\MDK-ARM(uV4)\JLinkSettings.ini"", ...)Device "CORTEX-M4" selected.  returns 0x00 (0005ms, 0571ms total)
T2894 000:634 JLINK_ExecCommand("Device = Cortex-M4 FPU", ...)Device "CORTEX-M4" selected.  returns 0x00 (0004ms, 0575ms total)
T2894 000:638 JLINK_ExecCommand("DisableConnectionTimeout", ...)  returns 0x01 (0000ms, 0575ms total)
T2894 000:638 JLINK_GetHardwareVersion()  returns 0x16F30 (0000ms, 0575ms total)
T2894 000:638 JLINK_GetDLLVersion()  returns 51200 (0000ms, 0575ms total)
T2894 000:638 JLINK_GetFirmwareString(...) (0000ms, 0575ms total)
T2894 000:706 JLINK_GetDLLVersion()  returns 51200 (0000ms, 0575ms total)
T2894 000:706 JLINK_GetCompileDateTime() (0000ms, 0575ms total)
T2894 000:716 JLINK_GetFirmwareString(...) (0000ms, 0575ms total)
T2894 000:727 JLINK_GetHardwareVersion()  returns 0x16F30 (0000ms, 0575ms total)
T2894 000:751 JLINK_TIF_Select(JLINKARM_TIF_SWD)  returns 0x00 (0001ms, 0576ms total)
T2894 000:752 JLINK_SetSpeed(5000) (0000ms, 0576ms total)
T2894 000:752 JLINK_GetId() >0x108 TIF>Found SWD-DP with ID 0x2BA01477 >0x0D TIF> >0x28 TIF> >0x0D TIF> >0x28 TIF> >0x0D TIF> >0x28 TIF> >0x0D TIF> >0x28 TIF> >0x0D TIF> >0x21 TIF> >0x0D TIF> >0x28 TIF> >0x0D TIF> >0x28 TIF> >0x0D TIF> >0x21 TIF> >0x0D TIF> >0x21 TIF> >0x0D TIF> >0x21 TIF> >0x0D TIF> >0x28 TIF> >0x0D TIF> >0x28 TIF> >0x0D TIF> >0x28 TIF> >0x0D TIF> >0x21 TIF> >0x0D TIF> >0x21 TIF> >0x0D TIF> >0x28 TIF> >0x0D TIF> >0x21 TIF> >0x0D TIF> >0x21 TIF>Found Cortex-M4 r0p1, Little endian.
 -- CPU_ReadMem(4 bytes @ 0xE000EDF0) -- CPU_WriteMem(4 bytes @ 0xE000EDF0) -- CPU_ReadMem(4 bytes @ 0xE0002000)FPUnit: 6 code (BP) slots and 2 literal slots -- CPU_ReadMem(4 bytes @ 0xE000EDFC) -- CPU_WriteMem(4 bytes @ 0xE000EDFC) -- CPU_ReadMem(4 bytes @ 0xE0001000) -- CPU_WriteMem(4 bytes @ 0xE0001000) -- CPU_ReadMem(4 bytes @ 0xE000ED88) -- CPU_WriteMem(4 bytes @ 0xE000ED88) -- CPU_ReadMem(4 bytes @ 0xE000ED88) -- CPU_WriteMem(4 bytes @ 0xE000ED88)CoreSight components:ROMTbl 0 @ E00FF000
 -- CPU_ReadMem(16 bytes @ 0xE00FF000) -- CPU_ReadMem(16 bytes @ 0xE000EFF0) -- CPU_ReadMem(16 bytes @ 0xE000EFE0)ROMTbl 0 [0]: FFF0F000, CID: B105E00D, PID: 000BB00C SCS -- CPU_ReadMem(16 bytes @ 0xE0001FF0) -- CPU_ReadMem(16 bytes @ 0xE0001FE0)ROMTbl 0 [1]: FFF02000, CID: B105E00D, PID: 003BB002 DWT -- CPU_ReadMem(16 bytes @ 0xE0002FF0) -- CPU_ReadMem(16 bytes @ 0xE0002FE0)ROMTbl 0 [2]: FFF03000, CID: B105E00D, PID: 002BB003 FPB -- CPU_ReadMem(16 bytes @ 0xE00FF010) >0x0D TIF> >0x21 TIF>
  returns 0x2BA01477 (0062ms, 0638ms total)
T2894 000:815 JLINK_GetDLLVersion()  returns 51200 (0000ms, 0639ms total)
T2894 000:815 JLINK_CORE_GetFound()  returns 0xE0000FF (0000ms, 0639ms total)
T2894 000:815 JLINK_GetDebugInfo(0x100) -- Value=0xE00FF000  returns 0x00 (0000ms, 0639ms total)
T2894 000:820 JLINK_GetDebugInfo(0x100) -- Value=0xE00FF000  returns 0x00 (0000ms, 0639ms total)
T2894 000:820 JLINK_GetDebugInfo(0x101) -- Value=0x00000000  returns 0x00 (0000ms, 0639ms total)
T2894 000:820 JLINK_ReadMem (0xE0041FF0, 0x0010 Bytes, ...) -- CPU is running -- CPU_ReadMem(16 bytes @ 0xE0041FF0) - Data: 00 00 00 00 00 00 00 00 00 00 00 00 00 00 00 00  returns 0x00 (0001ms, 0640ms total)
T2894 000:821 JLINK_GetDebugInfo(0x102) -- Value=0x00000000  returns 0x00 (0000ms, 0640ms total)
T2894 000:821 JLINK_GetDebugInfo(0x103) -- Value=0x00000000  returns 0x00 (0000ms, 0640ms total)
T2894 000:821 JLINK_ReadMem (0xE0040FF0, 0x0010 Bytes, ...) -- CPU is running -- CPU_ReadMem(16 bytes @ 0xE0040FF0) - Data: 00 00 00 00 00 00 00 00 00 00 00 00 00 00 00 00  returns 0x00 (0000ms, 0640ms total)
T2894 000:821 JLINK_GetDebugInfo(0x104) -- Value=0xE0000000  returns 0x00 (0000ms, 0640ms total)
T2894 000:821 JLINK_GetDebugInfo(0x105) -- Value=0xE0001000  returns 0x00 (0000ms, 0640ms total)
T2894 000:821 JLINK_GetDebugInfo(0x106) -- Value=0xE0002000  returns 0x00 (0001ms, 0641ms total)
T2894 000:822 JLINK_GetDebugInfo(0x107) -- Value=0xE000E000  returns 0x00 (0000ms, 0641ms total)
T2894 000:822 JLINK_GetDebugInfo(0x10C) -- Value=0xE000EDF0  returns 0x00 (0000ms, 0641ms total)
T2894 000:822 JLINK_ReadMemU32(0xE000EF40, 0x0001 Items, ...) -- CPU is running -- CPU_ReadMem(4 bytes @ 0xE000EF40) - Data: 21 00 11 10  returns 0x01 (0000ms, 0641ms total)
T2894 000:822 JLINK_ReadMemU32(0xE000EF44, 0x0001 Items, ...) -- CPU is running -- CPU_ReadMem(4 bytes @ 0xE000EF44) - Data: 11 00 00 11  returns 0x01 (0001ms, 0642ms total)
T2894 000:823 JLINK_ReadMemU32(0xE000ED00, 0x0001 Items, ...) -- CPU is running -- CPU_ReadMem(4 bytes @ 0xE000ED00) - Data: 41 C2 0F 41  returns 0x01 (0000ms, 0642ms total)
T2894 000:823 JLINK_SetResetType(JLINKARM_RESET_TYPE_NORMAL)  returns JLINKARM_RESET_TYPE_NORMAL (0000ms, 0642ms total)
T2894 000:823 JLINK_Reset() -- CPU is running -- CPU_WriteMem(4 bytes @ 0xE000EDF0) -- CPU is running -- CPU_WriteMem(4 bytes @ 0xE000EDFC) >0x35 TIF> -- CPU is running -- CPU_WriteMem(4 bytes @ 0xE000ED0C) -- CPU is running -- CPU_ReadMem(4 bytes @ 0xE000EDF0) -- CPU is running -- CPU_ReadMem(4 bytes @ 0xE000EDF0) -- CPU is running -- CPU_WriteMem(4 bytes @ 0xE000EDF0) -- CPU is running -- CPU_WriteMem(4 bytes @ 0xE000EDFC) -- CPU is running -- CPU_ReadMem(4 bytes @ 0xE000EDF0)
 -- CPU_WriteMem(4 bytes @ 0xE0002000) -- CPU_ReadMem(4 bytes @ 0xE000EDFC) -- CPU_ReadMem(4 bytes @ 0xE0001000) (0015ms, 0657ms total)
T2894 000:838 JLINK_Halt()  returns 0x00 (0000ms, 0657ms total)
T2894 000:838 JLINK_IsHalted()  returns TRUE (0000ms, 0657ms total)
T2894 000:838 JLINK_ReadMemU32(0xE000EDF0, 0x0001 Items, ...) -- CPU_ReadMem(4 bytes @ 0xE000EDF0) - Data: 03 00 03 00  returns 0x01 (0000ms, 0657ms total)
T2894 000:838 JLINK_WriteU32(0xE000EDF0, 0xA05F0003) -- CPU_WriteMem(4 bytes @ 0xE000EDF0)  returns 0x00 (0001ms, 0658ms total)
T2894 000:839 JLINK_WriteU32(0xE000EDFC, 0x01000000) -- CPU_WriteMem(4 bytes @ 0xE000EDFC)  returns 0x00 (0000ms, 0658ms total)
T2894 000:869 JLINK_GetHWStatus(...)  returns 0x00 (0000ms, 0658ms total)
T2894 000:892 JLINK_GetNumBPUnits(Type = 0xFFFFFF00)  returns 0x06 (0001ms, 0659ms total)
T2894 000:893 JLINK_GetNumBPUnits(Type = 0xF0)  returns 0x2000 (0000ms, 0659ms total)
T2894 000:893 JLINK_GetNumWPUnits()  returns 0x04 (0000ms, 0659ms total)
T2894 000:910 JLINK_GetSpeed()  returns 0xFA0 (0000ms, 0659ms total)
T2894 000:919 JLINK_ReadMemU32(0xE000E004, 0x0001 Items, ...) -- CPU_ReadMem(4 bytes @ 0xE000E004) - Data: 01 00 00 00  returns 0x01 (0000ms, 0659ms total)
T2894 000:919 JLINK_ReadMemU32(0xE000E004, 0x0001 Items, ...) -- CPU_ReadMem(4 bytes @ 0xE000E004) - Data: 01 00 00 00  returns 0x01 (0001ms, 0660ms total)
T2894 000:920 JLINK_WriteMem(0xE0001000, 0x001C Bytes, ...) - Data: 01 00 00 00 00 00 00 00 00 00 00 00 00 00 00 00 ... -- CPU_WriteMem(28 bytes @ 0xE0001000)  returns 0x1C (0001ms, 0661ms total)
T2894 000:921 JLINK_ReadMem (0xE0001000, 0x001C Bytes, ...) -- CPU_ReadMem(28 bytes @ 0xE0001000) - Data: 01 00 00 4F 00 00 00 00 00 00 00 00 00 00 00 00 ...  returns 0x00 (0001ms, 0662ms total)
T2894 000:922 JLINK_Halt()  returns 0x00 (0000ms, 0662ms total)
T2894 000:922 JLINK_IsHalted()  returns TRUE (0000ms, 0662ms total)
T2894 000:928 JLINK_WriteMem(0x20000000, 0x0704 Bytes, ...) - Data: 00 BE 0A E0 0D 78 2D 06 68 40 08 24 40 00 00 D3 ... -- CPU_WriteMem(1796 bytes @ 0x20000000)  returns 0x704 (0007ms, 0669ms total)
T2894 000:936 JLINK_WriteReg(R0, 0x01001000)  returns 0x00 (0000ms, 0669ms total)
T2894 000:936 JLINK_WriteReg(R1, 0x00B71B00)  returns 0x00 (0000ms, 0669ms total)
T2894 000:936 JLINK_WriteReg(R2, 0x00000001)  returns 0x00 (0000ms, 0669ms total)
T2894 000:936 JLINK_WriteReg(R3, 0x00000000)  returns 0x00 (0000ms, 0669ms total)
T2894 000:936 JLINK_WriteReg(R4, 0x00000000)  returns 0x00 (0000ms, 0669ms total)
T2894 000:936 JLINK_WriteReg(R5, 0x00000000)  returns 0x00 (0000ms, 0669ms total)
T2894 000:936 JLINK_WriteReg(R6, 0x00000000)  returns 0x00 (0000ms, 0669ms total)
T2894 000:936 JLINK_WriteReg(R7, 0x00000000)  returns 0x00 (0000ms, 0669ms total)
T2894 000:936 JLINK_WriteReg(R8, 0x00000000)  returns 0x00 (0000ms, 0669ms total)
T2894 000:936 JLINK_WriteReg(R9, 0x200006FC)  returns 0x00 (0000ms, 0669ms total)
T2894 000:936 JLINK_WriteReg(R10, 0x00000000)  returns 0x00 (0000ms, 0669ms total)
T2894 000:936 JLINK_WriteReg(R11, 0x00000000)  returns 0x00 (0000ms, 0669ms total)
T2894 000:936 JLINK_WriteReg(R12, 0x00000000)  returns 0x00 (0000ms, 0669ms total)
T2894 000:936 JLINK_WriteReg(R13 (SP), 0x20004000)  returns 0x00 (0000ms, 0669ms total)
T2894 000:936 JLINK_WriteReg(R14, 0x20000001)  returns 0x00 (0000ms, 0669ms total)
T2894 000:936 JLINK_WriteReg(R15 (PC), 0x200001D0)  returns 0x00 (0000ms, 0669ms total)
T2894 000:936 JLINK_WriteReg(XPSR, 0x01000000)  returns 0x00 (0000ms, 0669ms total)
T2894 000:936 JLINK_WriteReg(MSP, 0x20004000)  returns 0x00 (0000ms, 0669ms total)
T2894 000:936 JLINK_WriteReg(PSP, 0x20004000)  returns 0x00 (0000ms, 0669ms total)
T2894 000:936 JLINK_WriteReg(CFBP, 0x00000000)  returns 0x00 (0000ms, 0669ms total)
T2894 000:936 JLINK_SetBPEx(Addr = 0x20000000, Type = 0xFFFFFFF2) -- CPU_ReadMem(4 bytes @ 0x20000000) -- CPU_WriteMem(4 bytes @ 0x20000000) -- CPU_ReadMem(4 bytes @ 0x20000000) -- CPU_WriteMem(4 bytes @ 0x20000000) -- CPU_ReadMem(2 bytes @ 0x20000000)  returns 0x00000001 (0002ms, 0671ms total)
T2894 000:938 JLINK_Go() -- CPU_WriteMem(2 bytes @ 0x20000000) -- CPU_ReadMem(4 bytes @ 0xE0001000) -- CPU_WriteMem(4 bytes @ 0xE0002008) -- CPU_WriteMem(4 bytes @ 0xE000200C) -- CPU_WriteMem(4 bytes @ 0xE0002010) -- CPU_WriteMem(4 bytes @ 0xE0002014) -- CPU_WriteMem(4 bytes @ 0xE0002018) -- CPU_WriteMem(4 bytes @ 0xE000201C) -- CPU_WriteMem(4 bytes @ 0xE0001004) (0003ms, 0674ms total)
T2894 000:942 JLINK_IsHalted() -- CPU_ReadMem(2 bytes @ 0x20000000)  returns TRUE (0002ms, 0677ms total)
T2894 000:944 JLINK_ReadReg(R15 (PC))  returns 0x20000000 (0000ms, 0675ms total)
T2894 000:944 JLINK_ClrBPEx(BPHandle = 0x00000001)  returns 0x00 (0000ms, 0675ms total)
T2894 000:944 JLINK_ReadReg(R0)  returns 0x00000000 (0000ms, 0675ms total)
T2894 000:945 JLINK_WriteReg(R0, 0x01001000)  returns 0x00 (0000ms, 0675ms total)
T2894 000:945 JLINK_WriteReg(R1, 0x00001000)  returns 0x00 (0000ms, 0675ms total)
T2894 000:945 JLINK_WriteReg(R2, 0x000000FF)  returns 0x00 (0000ms, 0675ms total)
T2894 000:945 JLINK_WriteReg(R3, 0x00000000)  returns 0x00 (0000ms, 0675ms total)
T2894 000:945 JLINK_WriteReg(R4, 0x00000000)  returns 0x00 (0000ms, 0675ms total)
T2894 000:945 JLINK_WriteReg(R5, 0x00000000)  returns 0x00 (0000ms, 0675ms total)
T2894 000:945 JLINK_WriteReg(R6, 0x00000000)  returns 0x00 (0000ms, 0675ms total)
T2894 000:945 JLINK_WriteReg(R7, 0x00000000)  returns 0x00 (0000ms, 0675ms total)
T2894 000:945 JLINK_WriteReg(R8, 0x00000000)  returns 0x00 (0000ms, 0675ms total)
T2894 000:945 JLINK_WriteReg(R9, 0x200006FC)  returns 0x00 (0000ms, 0675ms total)
T2894 000:945 JLINK_WriteReg(R10, 0x00000000)  returns 0x00 (0000ms, 0675ms total)
T2894 000:945 JLINK_WriteReg(R11, 0x00000000)  returns 0x00 (0000ms, 0675ms total)
T2894 000:945 JLINK_WriteReg(R12, 0x00000000)  returns 0x00 (0000ms, 0675ms total)
T2894 000:945 JLINK_WriteReg(R13 (SP), 0x20004000)  returns 0x00 (0000ms, 0675ms total)
T2894 000:945 JLINK_WriteReg(R14, 0x20000001)  returns 0x00 (0000ms, 0675ms total)
T2894 000:945 JLINK_WriteReg(R15 (PC), 0x2000055C)  returns 0x00 (0000ms, 0675ms total)
T2894 000:945 JLINK_WriteReg(XPSR, 0x01000000)  returns 0x00 (0000ms, 0675ms total)
T2894 000:945 JLINK_WriteReg(MSP, 0x20004000)  returns 0x00 (0000ms, 0675ms total)
T2894 000:945 JLINK_WriteReg(PSP, 0x20004000)  returns 0x00 (0001ms, 0676ms total)
T2894 000:946 JLINK_WriteReg(CFBP, 0x00000000)  returns 0x00 (0000ms, 0676ms total)
T2894 000:946 JLINK_SetBPEx(Addr = 0x20000000, Type = 0xFFFFFFF2)  returns 0x00000002 (0000ms, 0676ms total)
T2894 000:946 JLINK_Go() -- CPU_ReadMem(4 bytes @ 0xE0001000) (0001ms, 0677ms total)
T2894 000:947 JLINK_IsHalted() -- CPU_ReadMem(2 bytes @ 0x20000000)  returns TRUE (0003ms, 0680ms total)
T2894 000:950 JLINK_ReadReg(R15 (PC))  returns 0x20000000 (0000ms, 0677ms total)
T2894 000:950 JLINK_ClrBPEx(BPHandle = 0x00000002)  returns 0x00 (0000ms, 0677ms total)
T2894 000:950 JLINK_ReadReg(R0)  returns 0x00000001 (0000ms, 0677ms total)
T2894 000:950 JLINK_WriteReg(R0, 0x01001000)  returns 0x00 (0000ms, 0677ms total)
T2894 000:950 JLINK_WriteReg(R1, 0x00001000)  returns 0x00 (0000ms, 0677ms total)
T2894 000:950 JLINK_WriteReg(R2, 0x000000FF)  returns 0x00 (0000ms, 0677ms total)
T2894 000:950 JLINK_WriteReg(R3, 0x00000000)  returns 0x00 (0000ms, 0677ms total)
T2894 000:950 JLINK_WriteReg(R4, 0x00000000)  returns 0x00 (0000ms, 0677ms total)
T2894 000:950 JLINK_WriteReg(R5, 0x00000000)  returns 0x00 (0000ms, 0677ms total)
T2894 000:950 JLINK_WriteReg(R6, 0x00000000)  returns 0x00 (0000ms, 0677ms total)
T2894 000:950 JLINK_WriteReg(R7, 0x00000000)  returns 0x00 (0001ms, 0678ms total)
T2894 000:951 JLINK_WriteReg(R8, 0x00000000)  returns 0x00 (0000ms, 0678ms total)
T2894 000:951 JLINK_WriteReg(R9, 0x200006FC)  returns 0x00 (0000ms, 0678ms total)
T2894 000:951 JLINK_WriteReg(R10, 0x00000000)  returns 0x00 (0000ms, 0678ms total)
T2894 000:951 JLINK_WriteReg(R11, 0x00000000)  returns 0x00 (0000ms, 0678ms total)
T2894 000:951 JLINK_WriteReg(R12, 0x00000000)  returns 0x00 (0000ms, 0678ms total)
T2894 000:951 JLINK_WriteReg(R13 (SP), 0x20004000)  returns 0x00 (0000ms, 0678ms total)
T2894 000:951 JLINK_WriteReg(R14, 0x20000001)  returns 0x00 (0000ms, 0678ms total)
T2894 000:951 JLINK_WriteReg(R15 (PC), 0x200005A4)  returns 0x00 (0000ms, 0678ms total)
T2894 000:951 JLINK_WriteReg(XPSR, 0x01000000)  returns 0x00 (0000ms, 0678ms total)
T2894 000:951 JLINK_WriteReg(MSP, 0x20004000)  returns 0x00 (0000ms, 0678ms total)
T2894 000:951 JLINK_WriteReg(PSP, 0x20004000)  returns 0x00 (0000ms, 0678ms total)
T2894 000:951 JLINK_WriteReg(CFBP, 0x00000000)  returns 0x00 (0000ms, 0678ms total)
T2894 000:951 JLINK_SetBPEx(Addr = 0x20000000, Type = 0xFFFFFFF2)  returns 0x00000003 (0000ms, 0678ms total)
T2894 000:951 JLINK_Go() -- CPU_ReadMem(4 bytes @ 0xE0001000) (0001ms, 0679ms total)
T2894 000:952 JLINK_IsHalted()  returns FALSE (0001ms, 0680ms total)
T2894 001:105 JLINK_IsHalted()  returns FALSE (0000ms, 0679ms total)
T2894 001:106 JLINK_IsHalted()  returns FALSE (0000ms, 0679ms total)
T2894 001:108 JLINK_IsHalted()  returns FALSE (0000ms, 0679ms total)
T2894 001:109 JLINK_IsHalted()  returns FALSE (0000ms, 0679ms total)
T2894 001:111 JLINK_IsHalted()  returns FALSE (0000ms, 0679ms total)
T2894 001:113 JLINK_IsHalted()  returns FALSE (0000ms, 0679ms total)
T2894 001:119 JLINK_IsHalted()  returns FALSE (0000ms, 0679ms total)
T2894 001:121 JLINK_IsHalted()  returns FALSE (0000ms, 0679ms total)
T2894 001:122 JLINK_IsHalted()  returns FALSE (0000ms, 0679ms total)
T2894 001:128 JLINK_IsHalted()  returns FALSE (0000ms, 0679ms total)
T2894 001:129 JLINK_IsHalted()  returns FALSE (0000ms, 0679ms total)
T2894 001:131 JLINK_IsHalted()  returns FALSE (0000ms, 0679ms total)
T2894 001:132 JLINK_IsHalted()  returns FALSE (0000ms, 0679ms total)
T2894 001:135 JLINK_IsHalted()  returns FALSE (0000ms, 0679ms total)
T2894 001:136 JLINK_IsHalted()  returns FALSE (0000ms, 0679ms total)
T2894 001:138 JLINK_IsHalted()  returns FALSE (0000ms, 0679ms total)
T2894 001:139 JLINK_IsHalted()  returns FALSE (0000ms, 0679ms total)
T2894 001:141 JLINK_IsHalted()  returns FALSE (0000ms, 0679ms total)
T2894 001:143 JLINK_IsHalted()  returns FALSE (0000ms, 0679ms total)
T2894 001:149 JLINK_IsHalted()  returns FALSE (0000ms, 0679ms total)
T2894 001:151 JLINK_IsHalted()  returns FALSE (0000ms, 0679ms total)
T2894 001:153 JLINK_IsHalted()  returns FALSE (0000ms, 0679ms total)
T2894 001:154 JLINK_IsHalted()  returns FALSE (0000ms, 0679ms total)
T2894 001:165 JLINK_IsHalted()  returns FALSE (0000ms, 0679ms total)
T2894 001:166 JLINK_IsHalted()  returns FALSE (0000ms, 0679ms total)
T2894 001:168 JLINK_IsHalted() -- CPU_ReadMem(2 bytes @ 0x20000000)  returns TRUE (0002ms, 0681ms total)
T2894 001:170 JLINK_ReadReg(R15 (PC))  returns 0x20000000 (0000ms, 0679ms total)
T2894 001:170 JLINK_ClrBPEx(BPHandle = 0x00000003)  returns 0x00 (0000ms, 0679ms total)
T2894 001:170 JLINK_ReadReg(R0)  returns 0x00000000 (0000ms, 0679ms total)
T2894 001:171 JLINK_WriteReg(R0, 0x01002000)  returns 0x00 (0000ms, 0679ms total)
T2894 001:171 JLINK_WriteReg(R1, 0x00001000)  returns 0x00 (0000ms, 0679ms total)
T2894 001:171 JLINK_WriteReg(R2, 0x000000FF)  returns 0x00 (0000ms, 0679ms total)
T2894 001:171 JLINK_WriteReg(R3, 0x00000000)  returns 0x00 (0000ms, 0679ms total)
T2894 001:171 JLINK_WriteReg(R4, 0x00000000)  returns 0x00 (0001ms, 0680ms total)
T2894 001:172 JLINK_WriteReg(R5, 0x00000000)  returns 0x00 (0000ms, 0680ms total)
T2894 001:172 JLINK_WriteReg(R6, 0x00000000)  returns 0x00 (0000ms, 0680ms total)
T2894 001:172 JLINK_WriteReg(R7, 0x00000000)  returns 0x00 (0000ms, 0680ms total)
T2894 001:172 JLINK_WriteReg(R8, 0x00000000)  returns 0x00 (0000ms, 0680ms total)
T2894 001:172 JLINK_WriteReg(R9, 0x200006FC)  returns 0x00 (0000ms, 0680ms total)
T2894 001:172 JLINK_WriteReg(R10, 0x00000000)  returns 0x00 (0000ms, 0680ms total)
T2894 001:172 JLINK_WriteReg(R11, 0x00000000)  returns 0x00 (0000ms, 0680ms total)
T2894 001:172 JLINK_WriteReg(R12, 0x00000000)  returns 0x00 (0000ms, 0680ms total)
T2894 001:172 JLINK_WriteReg(R13 (SP), 0x20004000)  returns 0x00 (0000ms, 0680ms total)
T2894 001:172 JLINK_WriteReg(R14, 0x20000001)  returns 0x00 (0000ms, 0680ms total)
T2894 001:172 JLINK_WriteReg(R15 (PC), 0x2000055C)  returns 0x00 (0000ms, 0680ms total)
T2894 001:172 JLINK_WriteReg(XPSR, 0x01000000)  returns 0x00 (0000ms, 0680ms total)
T2894 001:172 JLINK_WriteReg(MSP, 0x20004000)  returns 0x00 (0000ms, 0680ms total)
T2894 001:172 JLINK_WriteReg(PSP, 0x20004000)  returns 0x00 (0000ms, 0680ms total)
T2894 001:172 JLINK_WriteReg(CFBP, 0x00000000)  returns 0x00 (0000ms, 0680ms total)
T2894 001:172 JLINK_SetBPEx(Addr = 0x20000000, Type = 0xFFFFFFF2)  returns 0x00000004 (0000ms, 0680ms total)
T2894 001:172 JLINK_Go() -- CPU_ReadMem(4 bytes @ 0xE0001000) (0002ms, 0682ms total)
T2894 001:174 JLINK_IsHalted()  returns FALSE (0000ms, 0682ms total)
T2894 001:181 JLINK_IsHalted() -- CPU_ReadMem(2 bytes @ 0x20000000)  returns TRUE (0002ms, 0684ms total)
T2894 001:183 JLINK_ReadReg(R15 (PC))  returns 0x20000000 (0000ms, 0682ms total)
T2894 001:183 JLINK_ClrBPEx(BPHandle = 0x00000004)  returns 0x00 (0000ms, 0682ms total)
T2894 001:183 JLINK_ReadReg(R0)  returns 0x00000000 (0000ms, 0682ms total)
T2894 001:184 JLINK_WriteReg(R0, 0x01003000)  returns 0x00 (0000ms, 0682ms total)
T2894 001:184 JLINK_WriteReg(R1, 0x00001000)  returns 0x00 (0000ms, 0682ms total)
T2894 001:184 JLINK_WriteReg(R2, 0x000000FF)  returns 0x00 (0000ms, 0682ms total)
T2894 001:184 JLINK_WriteReg(R3, 0x00000000)  returns 0x00 (0000ms, 0682ms total)
T2894 001:184 JLINK_WriteReg(R4, 0x00000000)  returns 0x00 (0000ms, 0682ms total)
T2894 001:184 JLINK_WriteReg(R5, 0x00000000)  returns 0x00 (0000ms, 0682ms total)
T2894 001:184 JLINK_WriteReg(R6, 0x00000000)  returns 0x00 (0000ms, 0682ms total)
T2894 001:184 JLINK_WriteReg(R7, 0x00000000)  returns 0x00 (0000ms, 0682ms total)
T2894 001:184 JLINK_WriteReg(R8, 0x00000000)  returns 0x00 (0000ms, 0682ms total)
T2894 001:184 JLINK_WriteReg(R9, 0x200006FC)  returns 0x00 (0000ms, 0682ms total)
T2894 001:184 JLINK_WriteReg(R10, 0x00000000)  returns 0x00 (0000ms, 0682ms total)
T2894 001:184 JLINK_WriteReg(R11, 0x00000000)  returns 0x00 (0000ms, 0682ms total)
T2894 001:184 JLINK_WriteReg(R12, 0x00000000)  returns 0x00 (0000ms, 0682ms total)
T2894 001:184 JLINK_WriteReg(R13 (SP), 0x20004000)  returns 0x00 (0000ms, 0682ms total)
T2894 001:184 JLINK_WriteReg(R14, 0x20000001)  returns 0x00 (0000ms, 0682ms total)
T2894 001:184 JLINK_WriteReg(R15 (PC), 0x2000055C)  returns 0x00 (0000ms, 0682ms total)
T2894 001:184 JLINK_WriteReg(XPSR, 0x01000000)  returns 0x00 (0000ms, 0682ms total)
T2894 001:184 JLINK_WriteReg(MSP, 0x20004000)  returns 0x00 (0000ms, 0682ms total)
T2894 001:184 JLINK_WriteReg(PSP, 0x20004000)  returns 0x00 (0001ms, 0683ms total)
T2894 001:185 JLINK_WriteReg(CFBP, 0x00000000)  returns 0x00 (0000ms, 0683ms total)
T2894 001:185 JLINK_SetBPEx(Addr = 0x20000000, Type = 0xFFFFFFF2)  returns 0x00000005 (0000ms, 0683ms total)
T2894 001:185 JLINK_Go() -- CPU_ReadMem(4 bytes @ 0xE0001000) (0001ms, 0684ms total)
T2894 001:186 JLINK_IsHalted()  returns FALSE (0000ms, 0684ms total)
T2894 001:195 JLINK_IsHalted() -- CPU_ReadMem(2 bytes @ 0x20000000)  returns TRUE (0002ms, 0686ms total)
T2894 001:197 JLINK_ReadReg(R15 (PC))  returns 0x20000000 (0000ms, 0684ms total)
T2894 001:197 JLINK_ClrBPEx(BPHandle = 0x00000005)  returns 0x00 (0000ms, 0684ms total)
T2894 001:197 JLINK_ReadReg(R0)  returns 0x00000000 (0000ms, 0684ms total)
T2894 001:198 JLINK_WriteReg(R0, 0x01004000)  returns 0x00 (0000ms, 0684ms total)
T2894 001:198 JLINK_WriteReg(R1, 0x00001000)  returns 0x00 (0000ms, 0684ms total)
T2894 001:198 JLINK_WriteReg(R2, 0x000000FF)  returns 0x00 (0000ms, 0684ms total)
T2894 001:198 JLINK_WriteReg(R3, 0x00000000)  returns 0x00 (0000ms, 0684ms total)
T2894 001:198 JLINK_WriteReg(R4, 0x00000000)  returns 0x00 (0000ms, 0684ms total)
T2894 001:198 JLINK_WriteReg(R5, 0x00000000)  returns 0x00 (0000ms, 0684ms total)
T2894 001:198 JLINK_WriteReg(R6, 0x00000000)  returns 0x00 (0000ms, 0684ms total)
T2894 001:198 JLINK_WriteReg(R7, 0x00000000)  returns 0x00 (0000ms, 0684ms total)
T2894 001:198 JLINK_WriteReg(R8, 0x00000000)  returns 0x00 (0000ms, 0684ms total)
T2894 001:198 JLINK_WriteReg(R9, 0x200006FC)  returns 0x00 (0000ms, 0684ms total)
T2894 001:198 JLINK_WriteReg(R10, 0x00000000)  returns 0x00 (0000ms, 0684ms total)
T2894 001:198 JLINK_WriteReg(R11, 0x00000000)  returns 0x00 (0000ms, 0684ms total)
T2894 001:198 JLINK_WriteReg(R12, 0x00000000)  returns 0x00 (0000ms, 0684ms total)
T2894 001:199 JLINK_WriteReg(R13 (SP), 0x20004000)  returns 0x00 (0000ms, 0685ms total)
T2894 001:199 JLINK_WriteReg(R14, 0x20000001)  returns 0x00 (0000ms, 0685ms total)
T2894 001:199 JLINK_WriteReg(R15 (PC), 0x2000055C)  returns 0x00 (0000ms, 0685ms total)
T2894 001:199 JLINK_WriteReg(XPSR, 0x01000000)  returns 0x00 (0000ms, 0685ms total)
T2894 001:199 JLINK_WriteReg(MSP, 0x20004000)  returns 0x00 (0000ms, 0685ms total)
T2894 001:199 JLINK_WriteReg(PSP, 0x20004000)  returns 0x00 (0000ms, 0685ms total)
T2894 001:199 JLINK_WriteReg(CFBP, 0x00000000)  returns 0x00 (0000ms, 0685ms total)
T2894 001:199 JLINK_SetBPEx(Addr = 0x20000000, Type = 0xFFFFFFF2)  returns 0x00000006 (0000ms, 0685ms total)
T2894 001:199 JLINK_Go() -- CPU_ReadMem(4 bytes @ 0xE0001000) (0001ms, 0686ms total)
T2894 001:200 JLINK_IsHalted()  returns FALSE (0001ms, 0687ms total)
T2894 001:202 JLINK_IsHalted() -- CPU_ReadMem(2 bytes @ 0x20000000)  returns TRUE (0002ms, 0688ms total)
T2894 001:204 JLINK_ReadReg(R15 (PC))  returns 0x20000000 (0000ms, 0686ms total)
T2894 001:204 JLINK_ClrBPEx(BPHandle = 0x00000006)  returns 0x00 (0001ms, 0687ms total)
T2894 001:205 JLINK_ReadReg(R0)  returns 0x00000000 (0000ms, 0687ms total)
T2894 001:206 JLINK_WriteReg(R0, 0x01005000)  returns 0x00 (0000ms, 0687ms total)
T2894 001:206 JLINK_WriteReg(R1, 0x00001000)  returns 0x00 (0000ms, 0687ms total)
T2894 001:206 JLINK_WriteReg(R2, 0x000000FF)  returns 0x00 (0000ms, 0687ms total)
T2894 001:206 JLINK_WriteReg(R3, 0x00000000)  returns 0x00 (0000ms, 0687ms total)
T2894 001:206 JLINK_WriteReg(R4, 0x00000000)  returns 0x00 (0000ms, 0687ms total)
T2894 001:206 JLINK_WriteReg(R5, 0x00000000)  returns 0x00 (0000ms, 0687ms total)
T2894 001:206 JLINK_WriteReg(R6, 0x00000000)  returns 0x00 (0000ms, 0687ms total)
T2894 001:206 JLINK_WriteReg(R7, 0x00000000)  returns 0x00 (0000ms, 0687ms total)
T2894 001:206 JLINK_WriteReg(R8, 0x00000000)  returns 0x00 (0000ms, 0687ms total)
T2894 001:206 JLINK_WriteReg(R9, 0x200006FC)  returns 0x00 (0000ms, 0687ms total)
T2894 001:206 JLINK_WriteReg(R10, 0x00000000)  returns 0x00 (0000ms, 0687ms total)
T2894 001:206 JLINK_WriteReg(R11, 0x00000000)  returns 0x00 (0000ms, 0687ms total)
T2894 001:206 JLINK_WriteReg(R12, 0x00000000)  returns 0x00 (0000ms, 0687ms total)
T2894 001:206 JLINK_WriteReg(R13 (SP), 0x20004000)  returns 0x00 (0000ms, 0687ms total)
T2894 001:206 JLINK_WriteReg(R14, 0x20000001)  returns 0x00 (0000ms, 0687ms total)
T2894 001:206 JLINK_WriteReg(R15 (PC), 0x2000055C)  returns 0x00 (0000ms, 0687ms total)
T2894 001:206 JLINK_WriteReg(XPSR, 0x01000000)  returns 0x00 (0000ms, 0687ms total)
T2894 001:206 JLINK_WriteReg(MSP, 0x20004000)  returns 0x00 (0000ms, 0687ms total)
T2894 001:206 JLINK_WriteReg(PSP, 0x20004000)  returns 0x00 (0000ms, 0687ms total)
T2894 001:206 JLINK_WriteReg(CFBP, 0x00000000)  returns 0x00 (0000ms, 0687ms total)
T2894 001:206 JLINK_SetBPEx(Addr = 0x20000000, Type = 0xFFFFFFF2)  returns 0x00000007 (0000ms, 0687ms total)
T2894 001:206 JLINK_Go() -- CPU_ReadMem(4 bytes @ 0xE0001000) (0002ms, 0689ms total)
T2894 001:208 JLINK_IsHalted()  returns FALSE (0000ms, 0689ms total)
T2894 001:214 JLINK_IsHalted() -- CPU_ReadMem(2 bytes @ 0x20000000)  returns TRUE (0003ms, 0692ms total)
T2894 001:217 JLINK_ReadReg(R15 (PC))  returns 0x20000000 (0000ms, 0689ms total)
T2894 001:217 JLINK_ClrBPEx(BPHandle = 0x00000007)  returns 0x00 (0000ms, 0689ms total)
T2894 001:217 JLINK_ReadReg(R0)  returns 0x00000000 (0000ms, 0689ms total)
T2894 001:218 JLINK_WriteReg(R0, 0x01006000)  returns 0x00 (0000ms, 0689ms total)
T2894 001:218 JLINK_WriteReg(R1, 0x00001000)  returns 0x00 (0000ms, 0689ms total)
T2894 001:218 JLINK_WriteReg(R2, 0x000000FF)  returns 0x00 (0000ms, 0689ms total)
T2894 001:218 JLINK_WriteReg(R3, 0x00000000)  returns 0x00 (0001ms, 0690ms total)
T2894 001:219 JLINK_WriteReg(R4, 0x00000000)  returns 0x00 (0000ms, 0690ms total)
T2894 001:219 JLINK_WriteReg(R5, 0x00000000)  returns 0x00 (0000ms, 0690ms total)
T2894 001:219 JLINK_WriteReg(R6, 0x00000000)  returns 0x00 (0000ms, 0690ms total)
T2894 001:219 JLINK_WriteReg(R7, 0x00000000)  returns 0x00 (0000ms, 0690ms total)
T2894 001:219 JLINK_WriteReg(R8, 0x00000000)  returns 0x00 (0000ms, 0690ms total)
T2894 001:219 JLINK_WriteReg(R9, 0x200006FC)  returns 0x00 (0000ms, 0690ms total)
T2894 001:219 JLINK_WriteReg(R10, 0x00000000)  returns 0x00 (0000ms, 0690ms total)
T2894 001:219 JLINK_WriteReg(R11, 0x00000000)  returns 0x00 (0000ms, 0690ms total)
T2894 001:219 JLINK_WriteReg(R12, 0x00000000)  returns 0x00 (0000ms, 0690ms total)
T2894 001:219 JLINK_WriteReg(R13 (SP), 0x20004000)  returns 0x00 (0000ms, 0690ms total)
T2894 001:219 JLINK_WriteReg(R14, 0x20000001)  returns 0x00 (0000ms, 0690ms total)
T2894 001:219 JLINK_WriteReg(R15 (PC), 0x2000055C)  returns 0x00 (0000ms, 0690ms total)
T2894 001:219 JLINK_WriteReg(XPSR, 0x01000000)  returns 0x00 (0000ms, 0690ms total)
T2894 001:219 JLINK_WriteReg(MSP, 0x20004000)  returns 0x00 (0000ms, 0690ms total)
T2894 001:219 JLINK_WriteReg(PSP, 0x20004000)  returns 0x00 (0000ms, 0690ms total)
T2894 001:219 JLINK_WriteReg(CFBP, 0x00000000)  returns 0x00 (0000ms, 0690ms total)
T2894 001:219 JLINK_SetBPEx(Addr = 0x20000000, Type = 0xFFFFFFF2)  returns 0x00000008 (0000ms, 0690ms total)
T2894 001:219 JLINK_Go() -- CPU_ReadMem(4 bytes @ 0xE0001000) (0002ms, 0692ms total)
T2894 001:221 JLINK_IsHalted()  returns FALSE (0000ms, 0692ms total)
T2894 001:227 JLINK_IsHalted() -- CPU_ReadMem(2 bytes @ 0x20000000)  returns TRUE (0002ms, 0694ms total)
T2894 001:229 JLINK_ReadReg(R15 (PC))  returns 0x20000000 (0000ms, 0692ms total)
T2894 001:229 JLINK_ClrBPEx(BPHandle = 0x00000008)  returns 0x00 (0000ms, 0692ms total)
T2894 001:229 JLINK_ReadReg(R0)  returns 0x00000000 (0000ms, 0692ms total)
T2894 001:230 JLINK_WriteReg(R0, 0x01007000)  returns 0x00 (0000ms, 0692ms total)
T2894 001:230 JLINK_WriteReg(R1, 0x00001000)  returns 0x00 (0000ms, 0692ms total)
T2894 001:230 JLINK_WriteReg(R2, 0x000000FF)  returns 0x00 (0000ms, 0692ms total)
T2894 001:230 JLINK_WriteReg(R3, 0x00000000)  returns 0x00 (0000ms, 0692ms total)
T2894 001:230 JLINK_WriteReg(R4, 0x00000000)  returns 0x00 (0000ms, 0692ms total)
T2894 001:230 JLINK_WriteReg(R5, 0x00000000)  returns 0x00 (0000ms, 0692ms total)
T2894 001:230 JLINK_WriteReg(R6, 0x00000000)  returns 0x00 (0000ms, 0692ms total)
T2894 001:230 JLINK_WriteReg(R7, 0x00000000)  returns 0x00 (0000ms, 0692ms total)
T2894 001:230 JLINK_WriteReg(R8, 0x00000000)  returns 0x00 (0000ms, 0692ms total)
T2894 001:230 JLINK_WriteReg(R9, 0x200006FC)  returns 0x00 (0000ms, 0692ms total)
T2894 001:230 JLINK_WriteReg(R10, 0x00000000)  returns 0x00 (0000ms, 0692ms total)
T2894 001:230 JLINK_WriteReg(R11, 0x00000000)  returns 0x00 (0000ms, 0692ms total)
T2894 001:230 JLINK_WriteReg(R12, 0x00000000)  returns 0x00 (0000ms, 0692ms total)
T2894 001:230 JLINK_WriteReg(R13 (SP), 0x20004000)  returns 0x00 (0001ms, 0693ms total)
T2894 001:231 JLINK_WriteReg(R14, 0x20000001)  returns 0x00 (0000ms, 0693ms total)
T2894 001:231 JLINK_WriteReg(R15 (PC), 0x2000055C)  returns 0x00 (0000ms, 0693ms total)
T2894 001:231 JLINK_WriteReg(XPSR, 0x01000000)  returns 0x00 (0000ms, 0693ms total)
T2894 001:231 JLINK_WriteReg(MSP, 0x20004000)  returns 0x00 (0000ms, 0693ms total)
T2894 001:231 JLINK_WriteReg(PSP, 0x20004000)  returns 0x00 (0000ms, 0693ms total)
T2894 001:231 JLINK_WriteReg(CFBP, 0x00000000)  returns 0x00 (0000ms, 0693ms total)
T2894 001:231 JLINK_SetBPEx(Addr = 0x20000000, Type = 0xFFFFFFF2)  returns 0x00000009 (0000ms, 0693ms total)
T2894 001:231 JLINK_Go() -- CPU_ReadMem(4 bytes @ 0xE0001000) (0001ms, 0694ms total)
T2894 001:232 JLINK_IsHalted()  returns FALSE (0000ms, 0694ms total)
T2894 001:234 JLINK_IsHalted() -- CPU_ReadMem(2 bytes @ 0x20000000)  returns TRUE (0002ms, 0696ms total)
T2894 001:236 JLINK_ReadReg(R15 (PC))  returns 0x20000000 (0000ms, 0694ms total)
T2894 001:236 JLINK_ClrBPEx(BPHandle = 0x00000009)  returns 0x00 (0000ms, 0694ms total)
T2894 001:236 JLINK_ReadReg(R0)  returns 0x00000000 (0000ms, 0694ms total)
T2894 001:237 JLINK_WriteReg(R0, 0x01008000)  returns 0x00 (0000ms, 0694ms total)
T2894 001:237 JLINK_WriteReg(R1, 0x00001000)  returns 0x00 (0000ms, 0694ms total)
T2894 001:237 JLINK_WriteReg(R2, 0x000000FF)  returns 0x00 (0000ms, 0694ms total)
T2894 001:237 JLINK_WriteReg(R3, 0x00000000)  returns 0x00 (0000ms, 0694ms total)
T2894 001:237 JLINK_WriteReg(R4, 0x00000000)  returns 0x00 (0000ms, 0694ms total)
T2894 001:237 JLINK_WriteReg(R5, 0x00000000)  returns 0x00 (0000ms, 0694ms total)
T2894 001:237 JLINK_WriteReg(R6, 0x00000000)  returns 0x00 (0000ms, 0694ms total)
T2894 001:237 JLINK_WriteReg(R7, 0x00000000)  returns 0x00 (0000ms, 0694ms total)
T2894 001:237 JLINK_WriteReg(R8, 0x00000000)  returns 0x00 (0000ms, 0694ms total)
T2894 001:237 JLINK_WriteReg(R9, 0x200006FC)  returns 0x00 (0001ms, 0695ms total)
T2894 001:238 JLINK_WriteReg(R10, 0x00000000)  returns 0x00 (0000ms, 0695ms total)
T2894 001:238 JLINK_WriteReg(R11, 0x00000000)  returns 0x00 (0000ms, 0695ms total)
T2894 001:238 JLINK_WriteReg(R12, 0x00000000)  returns 0x00 (0000ms, 0695ms total)
T2894 001:238 JLINK_WriteReg(R13 (SP), 0x20004000)  returns 0x00 (0000ms, 0695ms total)
T2894 001:238 JLINK_WriteReg(R14, 0x20000001)  returns 0x00 (0000ms, 0695ms total)
T2894 001:238 JLINK_WriteReg(R15 (PC), 0x2000055C)  returns 0x00 (0000ms, 0695ms total)
T2894 001:238 JLINK_WriteReg(XPSR, 0x01000000)  returns 0x00 (0000ms, 0695ms total)
T2894 001:238 JLINK_WriteReg(MSP, 0x20004000)  returns 0x00 (0000ms, 0695ms total)
T2894 001:238 JLINK_WriteReg(PSP, 0x20004000)  returns 0x00 (0000ms, 0695ms total)
T2894 001:238 JLINK_WriteReg(CFBP, 0x00000000)  returns 0x00 (0000ms, 0695ms total)
T2894 001:238 JLINK_SetBPEx(Addr = 0x20000000, Type = 0xFFFFFFF2)  returns 0x0000000A (0000ms, 0695ms total)
T2894 001:238 JLINK_Go() -- CPU_ReadMem(4 bytes @ 0xE0001000) (0001ms, 0696ms total)
T2894 001:239 JLINK_IsHalted()  returns FALSE (0001ms, 0697ms total)
T2894 001:245 JLINK_IsHalted() -- CPU_ReadMem(2 bytes @ 0x20000000)  returns TRUE (0002ms, 0698ms total)
T2894 001:248 JLINK_ReadReg(R15 (PC))  returns 0x20000000 (0000ms, 0696ms total)
T2894 001:248 JLINK_ClrBPEx(BPHandle = 0x0000000A)  returns 0x00 (0000ms, 0696ms total)
T2894 001:248 JLINK_ReadReg(R0)  returns 0x00000000 (0000ms, 0696ms total)
T2894 001:249 JLINK_WriteReg(R0, 0x01009000)  returns 0x00 (0000ms, 0696ms total)
T2894 001:249 JLINK_WriteReg(R1, 0x00001000)  returns 0x00 (0000ms, 0696ms total)
T2894 001:249 JLINK_WriteReg(R2, 0x000000FF)  returns 0x00 (0000ms, 0696ms total)
T2894 001:249 JLINK_WriteReg(R3, 0x00000000)  returns 0x00 (0000ms, 0696ms total)
T2894 001:249 JLINK_WriteReg(R4, 0x00000000)  returns 0x00 (0000ms, 0696ms total)
T2894 001:249 JLINK_WriteReg(R5, 0x00000000)  returns 0x00 (0000ms, 0696ms total)
T2894 001:249 JLINK_WriteReg(R6, 0x00000000)  returns 0x00 (0000ms, 0696ms total)
T2894 001:249 JLINK_WriteReg(R7, 0x00000000)  returns 0x00 (0000ms, 0696ms total)
T2894 001:249 JLINK_WriteReg(R8, 0x00000000)  returns 0x00 (0000ms, 0696ms total)
T2894 001:249 JLINK_WriteReg(R9, 0x200006FC)  returns 0x00 (0000ms, 0696ms total)
T2894 001:249 JLINK_WriteReg(R10, 0x00000000)  returns 0x00 (0000ms, 0696ms total)
T2894 001:249 JLINK_WriteReg(R11, 0x00000000)  returns 0x00 (0000ms, 0696ms total)
T2894 001:249 JLINK_WriteReg(R12, 0x00000000)  returns 0x00 (0000ms, 0696ms total)
T2894 001:249 JLINK_WriteReg(R13 (SP), 0x20004000)  returns 0x00 (0000ms, 0696ms total)
T2894 001:250 JLINK_WriteReg(R14, 0x20000001)  returns 0x00 (0000ms, 0697ms total)
T2894 001:250 JLINK_WriteReg(R15 (PC), 0x2000055C)  returns 0x00 (0000ms, 0697ms total)
T2894 001:250 JLINK_WriteReg(XPSR, 0x01000000)  returns 0x00 (0000ms, 0697ms total)
T2894 001:250 JLINK_WriteReg(MSP, 0x20004000)  returns 0x00 (0000ms, 0697ms total)
T2894 001:250 JLINK_WriteReg(PSP, 0x20004000)  returns 0x00 (0000ms, 0697ms total)
T2894 001:250 JLINK_WriteReg(CFBP, 0x00000000)  returns 0x00 (0000ms, 0697ms total)
T2894 001:250 JLINK_SetBPEx(Addr = 0x20000000, Type = 0xFFFFFFF2)  returns 0x0000000B (0000ms, 0697ms total)
T2894 001:250 JLINK_Go() -- CPU_ReadMem(4 bytes @ 0xE0001000) (0001ms, 0698ms total)
T2894 001:251 JLINK_IsHalted()  returns FALSE (0001ms, 0699ms total)
T2894 001:258 JLINK_IsHalted() -- CPU_ReadMem(2 bytes @ 0x20000000)  returns TRUE (0002ms, 0700ms total)
T2894 001:260 JLINK_ReadReg(R15 (PC))  returns 0x20000000 (0000ms, 0698ms total)
T2894 001:260 JLINK_ClrBPEx(BPHandle = 0x0000000B)  returns 0x00 (0000ms, 0698ms total)
T2894 001:260 JLINK_ReadReg(R0)  returns 0x00000000 (0000ms, 0698ms total)
T2894 001:261 JLINK_WriteReg(R0, 0x0100A000)  returns 0x00 (0000ms, 0698ms total)
T2894 001:261 JLINK_WriteReg(R1, 0x00001000)  returns 0x00 (0000ms, 0698ms total)
T2894 001:261 JLINK_WriteReg(R2, 0x000000FF)  returns 0x00 (0000ms, 0698ms total)
T2894 001:261 JLINK_WriteReg(R3, 0x00000000)  returns 0x00 (0000ms, 0698ms total)
T2894 001:261 JLINK_WriteReg(R4, 0x00000000)  returns 0x00 (0000ms, 0698ms total)
T2894 001:261 JLINK_WriteReg(R5, 0x00000000)  returns 0x00 (0000ms, 0698ms total)
T2894 001:261 JLINK_WriteReg(R6, 0x00000000)  returns 0x00 (0000ms, 0698ms total)
T2894 001:261 JLINK_WriteReg(R7, 0x00000000)  returns 0x00 (0000ms, 0698ms total)
T2894 001:261 JLINK_WriteReg(R8, 0x00000000)  returns 0x00 (0000ms, 0698ms total)
T2894 001:261 JLINK_WriteReg(R9, 0x200006FC)  returns 0x00 (0000ms, 0698ms total)
T2894 001:261 JLINK_WriteReg(R10, 0x00000000)  returns 0x00 (0000ms, 0698ms total)
T2894 001:261 JLINK_WriteReg(R11, 0x00000000)  returns 0x00 (0000ms, 0698ms total)
T2894 001:261 JLINK_WriteReg(R12, 0x00000000)  returns 0x00 (0000ms, 0698ms total)
T2894 001:261 JLINK_WriteReg(R13 (SP), 0x20004000)  returns 0x00 (0000ms, 0698ms total)
T2894 001:261 JLINK_WriteReg(R14, 0x20000001)  returns 0x00 (0000ms, 0698ms total)
T2894 001:261 JLINK_WriteReg(R15 (PC), 0x2000055C)  returns 0x00 (0000ms, 0698ms total)
T2894 001:261 JLINK_WriteReg(XPSR, 0x01000000)  returns 0x00 (0001ms, 0699ms total)
T2894 001:262 JLINK_WriteReg(MSP, 0x20004000)  returns 0x00 (0000ms, 0699ms total)
T2894 001:262 JLINK_WriteReg(PSP, 0x20004000)  returns 0x00 (0000ms, 0699ms total)
T2894 001:262 JLINK_WriteReg(CFBP, 0x00000000)  returns 0x00 (0000ms, 0699ms total)
T2894 001:262 JLINK_SetBPEx(Addr = 0x20000000, Type = 0xFFFFFFF2)  returns 0x0000000C (0000ms, 0699ms total)
T2894 001:262 JLINK_Go() -- CPU_ReadMem(4 bytes @ 0xE0001000) (0001ms, 0700ms total)
T2894 001:263 JLINK_IsHalted()  returns FALSE (0000ms, 0700ms total)
T2894 001:270 JLINK_IsHalted() -- CPU_ReadMem(2 bytes @ 0x20000000)  returns TRUE (0003ms, 0703ms total)
T2894 001:273 JLINK_ReadReg(R15 (PC))  returns 0x20000000 (0000ms, 0700ms total)
T2894 001:273 JLINK_ClrBPEx(BPHandle = 0x0000000C)  returns 0x00 (0000ms, 0700ms total)
T2894 001:273 JLINK_ReadReg(R0)  returns 0x00000000 (0000ms, 0700ms total)
T2894 001:273 JLINK_WriteReg(R0, 0x0100B000)  returns 0x00 (0000ms, 0700ms total)
T2894 001:273 JLINK_WriteReg(R1, 0x00001000)  returns 0x00 (0001ms, 0701ms total)
T2894 001:274 JLINK_WriteReg(R2, 0x000000FF)  returns 0x00 (0000ms, 0701ms total)
T2894 001:274 JLINK_WriteReg(R3, 0x00000000)  returns 0x00 (0000ms, 0701ms total)
T2894 001:274 JLINK_WriteReg(R4, 0x00000000)  returns 0x00 (0000ms, 0701ms total)
T2894 001:274 JLINK_WriteReg(R5, 0x00000000)  returns 0x00 (0000ms, 0701ms total)
T2894 001:274 JLINK_WriteReg(R6, 0x00000000)  returns 0x00 (0000ms, 0701ms total)
T2894 001:274 JLINK_WriteReg(R7, 0x00000000)  returns 0x00 (0000ms, 0701ms total)
T2894 001:274 JLINK_WriteReg(R8, 0x00000000)  returns 0x00 (0000ms, 0701ms total)
T2894 001:274 JLINK_WriteReg(R9, 0x200006FC)  returns 0x00 (0000ms, 0701ms total)
T2894 001:274 JLINK_WriteReg(R10, 0x00000000)  returns 0x00 (0000ms, 0701ms total)
T2894 001:274 JLINK_WriteReg(R11, 0x00000000)  returns 0x00 (0000ms, 0701ms total)
T2894 001:274 JLINK_WriteReg(R12, 0x00000000)  returns 0x00 (0000ms, 0701ms total)
T2894 001:274 JLINK_WriteReg(R13 (SP), 0x20004000)  returns 0x00 (0000ms, 0701ms total)
T2894 001:274 JLINK_WriteReg(R14, 0x20000001)  returns 0x00 (0000ms, 0701ms total)
T2894 001:274 JLINK_WriteReg(R15 (PC), 0x2000055C)  returns 0x00 (0000ms, 0701ms total)
T2894 001:274 JLINK_WriteReg(XPSR, 0x01000000)  returns 0x00 (0000ms, 0701ms total)
T2894 001:274 JLINK_WriteReg(MSP, 0x20004000)  returns 0x00 (0000ms, 0701ms total)
T2894 001:274 JLINK_WriteReg(PSP, 0x20004000)  returns 0x00 (0000ms, 0701ms total)
T2894 001:274 JLINK_WriteReg(CFBP, 0x00000000)  returns 0x00 (0000ms, 0701ms total)
T2894 001:274 JLINK_SetBPEx(Addr = 0x20000000, Type = 0xFFFFFFF2)  returns 0x0000000D (0000ms, 0701ms total)
T2894 001:274 JLINK_Go() -- CPU_ReadMem(4 bytes @ 0xE0001000) (0001ms, 0702ms total)
T2894 001:275 JLINK_IsHalted()  returns FALSE (0001ms, 0703ms total)
T2894 001:277 JLINK_IsHalted() -- CPU_ReadMem(2 bytes @ 0x20000000)  returns TRUE (0003ms, 0705ms total)
T2894 001:280 JLINK_ReadReg(R15 (PC))  returns 0x20000000 (0000ms, 0702ms total)
T2894 001:280 JLINK_ClrBPEx(BPHandle = 0x0000000D)  returns 0x00 (0000ms, 0702ms total)
T2894 001:280 JLINK_ReadReg(R0)  returns 0x00000000 (0000ms, 0702ms total)
T2894 001:281 JLINK_WriteReg(R0, 0x0100C000)  returns 0x00 (0000ms, 0702ms total)
T2894 001:281 JLINK_WriteReg(R1, 0x00001000)  returns 0x00 (0000ms, 0702ms total)
T2894 001:281 JLINK_WriteReg(R2, 0x000000FF)  returns 0x00 (0000ms, 0702ms total)
T2894 001:281 JLINK_WriteReg(R3, 0x00000000)  returns 0x00 (0000ms, 0702ms total)
T2894 001:281 JLINK_WriteReg(R4, 0x00000000)  returns 0x00 (0000ms, 0702ms total)
T2894 001:281 JLINK_WriteReg(R5, 0x00000000)  returns 0x00 (0000ms, 0702ms total)
T2894 001:281 JLINK_WriteReg(R6, 0x00000000)  returns 0x00 (0000ms, 0702ms total)
T2894 001:281 JLINK_WriteReg(R7, 0x00000000)  returns 0x00 (0000ms, 0702ms total)
T2894 001:281 JLINK_WriteReg(R8, 0x00000000)  returns 0x00 (0000ms, 0702ms total)
T2894 001:281 JLINK_WriteReg(R9, 0x200006FC)  returns 0x00 (0000ms, 0702ms total)
T2894 001:281 JLINK_WriteReg(R10, 0x00000000)  returns 0x00 (0000ms, 0702ms total)
T2894 001:281 JLINK_WriteReg(R11, 0x00000000)  returns 0x00 (0000ms, 0702ms total)
T2894 001:281 JLINK_WriteReg(R12, 0x00000000)  returns 0x00 (0000ms, 0702ms total)
T2894 001:281 JLINK_WriteReg(R13 (SP), 0x20004000)  returns 0x00 (0000ms, 0702ms total)
T2894 001:282 JLINK_WriteReg(R14, 0x20000001)  returns 0x00 (0000ms, 0703ms total)
T2894 001:282 JLINK_WriteReg(R15 (PC), 0x2000055C)  returns 0x00 (0000ms, 0703ms total)
T2894 001:282 JLINK_WriteReg(XPSR, 0x01000000)  returns 0x00 (0000ms, 0703ms total)
T2894 001:282 JLINK_WriteReg(MSP, 0x20004000)  returns 0x00 (0000ms, 0703ms total)
T2894 001:282 JLINK_WriteReg(PSP, 0x20004000)  returns 0x00 (0000ms, 0703ms total)
T2894 001:282 JLINK_WriteReg(CFBP, 0x00000000)  returns 0x00 (0000ms, 0703ms total)
T2894 001:282 JLINK_SetBPEx(Addr = 0x20000000, Type = 0xFFFFFFF2)  returns 0x0000000E (0000ms, 0703ms total)
T2894 001:282 JLINK_Go() -- CPU_ReadMem(4 bytes @ 0xE0001000) (0001ms, 0704ms total)
T2894 001:283 JLINK_IsHalted()  returns FALSE (0001ms, 0705ms total)
T2894 001:289 JLINK_IsHalted() -- CPU_ReadMem(2 bytes @ 0x20000000)  returns TRUE (0002ms, 0706ms total)
T2894 001:292 JLINK_ReadReg(R15 (PC))  returns 0x20000000 (0000ms, 0704ms total)
T2894 001:292 JLINK_ClrBPEx(BPHandle = 0x0000000E)  returns 0x00 (0000ms, 0704ms total)
T2894 001:292 JLINK_ReadReg(R0)  returns 0x00000000 (0000ms, 0704ms total)
T2894 001:292 JLINK_WriteReg(R0, 0x0100D000)  returns 0x00 (0000ms, 0704ms total)
T2894 001:292 JLINK_WriteReg(R1, 0x00001000)  returns 0x00 (0000ms, 0704ms total)
T2894 001:292 JLINK_WriteReg(R2, 0x000000FF)  returns 0x00 (0000ms, 0704ms total)
T2894 001:292 JLINK_WriteReg(R3, 0x00000000)  returns 0x00 (0000ms, 0704ms total)
T2894 001:292 JLINK_WriteReg(R4, 0x00000000)  returns 0x00 (0000ms, 0704ms total)
T2894 001:292 JLINK_WriteReg(R5, 0x00000000)  returns 0x00 (0001ms, 0705ms total)
T2894 001:293 JLINK_WriteReg(R6, 0x00000000)  returns 0x00 (0000ms, 0705ms total)
T2894 001:293 JLINK_WriteReg(R7, 0x00000000)  returns 0x00 (0000ms, 0705ms total)
T2894 001:293 JLINK_WriteReg(R8, 0x00000000)  returns 0x00 (0000ms, 0705ms total)
T2894 001:293 JLINK_WriteReg(R9, 0x200006FC)  returns 0x00 (0000ms, 0705ms total)
T2894 001:293 JLINK_WriteReg(R10, 0x00000000)  returns 0x00 (0000ms, 0705ms total)
T2894 001:293 JLINK_WriteReg(R11, 0x00000000)  returns 0x00 (0000ms, 0705ms total)
T2894 001:293 JLINK_WriteReg(R12, 0x00000000)  returns 0x00 (0000ms, 0705ms total)
T2894 001:293 JLINK_WriteReg(R13 (SP), 0x20004000)  returns 0x00 (0000ms, 0705ms total)
T2894 001:293 JLINK_WriteReg(R14, 0x20000001)  returns 0x00 (0000ms, 0705ms total)
T2894 001:293 JLINK_WriteReg(R15 (PC), 0x2000055C)  returns 0x00 (0000ms, 0705ms total)
T2894 001:293 JLINK_WriteReg(XPSR, 0x01000000)  returns 0x00 (0000ms, 0705ms total)
T2894 001:293 JLINK_WriteReg(MSP, 0x20004000)  returns 0x00 (0000ms, 0705ms total)
T2894 001:293 JLINK_WriteReg(PSP, 0x20004000)  returns 0x00 (0000ms, 0705ms total)
T2894 001:293 JLINK_WriteReg(CFBP, 0x00000000)  returns 0x00 (0000ms, 0705ms total)
T2894 001:293 JLINK_SetBPEx(Addr = 0x20000000, Type = 0xFFFFFFF2)  returns 0x0000000F (0000ms, 0705ms total)
T2894 001:293 JLINK_Go() -- CPU_ReadMem(4 bytes @ 0xE0001000) (0001ms, 0706ms total)
T2894 001:294 JLINK_IsHalted()  returns FALSE (0001ms, 0707ms total)
T2894 001:296 JLINK_IsHalted() -- CPU_ReadMem(2 bytes @ 0x20000000)  returns TRUE (0002ms, 0708ms total)
T2894 001:299 JLINK_ReadReg(R15 (PC))  returns 0x20000000 (0000ms, 0706ms total)
T2894 001:299 JLINK_ClrBPEx(BPHandle = 0x0000000F)  returns 0x00 (0000ms, 0706ms total)
T2894 001:299 JLINK_ReadReg(R0)  returns 0x00000000 (0000ms, 0706ms total)
T2894 001:300 JLINK_WriteReg(R0, 0x0100E000)  returns 0x00 (0000ms, 0706ms total)
T2894 001:300 JLINK_WriteReg(R1, 0x00001000)  returns 0x00 (0000ms, 0706ms total)
T2894 001:300 JLINK_WriteReg(R2, 0x000000FF)  returns 0x00 (0000ms, 0706ms total)
T2894 001:300 JLINK_WriteReg(R3, 0x00000000)  returns 0x00 (0000ms, 0706ms total)
T2894 001:300 JLINK_WriteReg(R4, 0x00000000)  returns 0x00 (0000ms, 0706ms total)
T2894 001:300 JLINK_WriteReg(R5, 0x00000000)  returns 0x00 (0000ms, 0706ms total)
T2894 001:300 JLINK_WriteReg(R6, 0x00000000)  returns 0x00 (0000ms, 0706ms total)
T2894 001:300 JLINK_WriteReg(R7, 0x00000000)  returns 0x00 (0000ms, 0706ms total)
T2894 001:300 JLINK_WriteReg(R8, 0x00000000)  returns 0x00 (0000ms, 0706ms total)
T2894 001:300 JLINK_WriteReg(R9, 0x200006FC)  returns 0x00 (0000ms, 0706ms total)
T2894 001:300 JLINK_WriteReg(R10, 0x00000000)  returns 0x00 (0000ms, 0706ms total)
T2894 001:300 JLINK_WriteReg(R11, 0x00000000)  returns 0x00 (0000ms, 0706ms total)
T2894 001:300 JLINK_WriteReg(R12, 0x00000000)  returns 0x00 (0000ms, 0706ms total)
T2894 001:301 JLINK_WriteReg(R13 (SP), 0x20004000)  returns 0x00 (0000ms, 0707ms total)
T2894 001:301 JLINK_WriteReg(R14, 0x20000001)  returns 0x00 (0000ms, 0707ms total)
T2894 001:301 JLINK_WriteReg(R15 (PC), 0x2000055C)  returns 0x00 (0000ms, 0707ms total)
T2894 001:301 JLINK_WriteReg(XPSR, 0x01000000)  returns 0x00 (0000ms, 0707ms total)
T2894 001:301 JLINK_WriteReg(MSP, 0x20004000)  returns 0x00 (0000ms, 0707ms total)
T2894 001:301 JLINK_WriteReg(PSP, 0x20004000)  returns 0x00 (0000ms, 0707ms total)
T2894 001:301 JLINK_WriteReg(CFBP, 0x00000000)  returns 0x00 (0000ms, 0707ms total)
T2894 001:301 JLINK_SetBPEx(Addr = 0x20000000, Type = 0xFFFFFFF2)  returns 0x00000010 (0000ms, 0707ms total)
T2894 001:301 JLINK_Go() -- CPU_ReadMem(4 bytes @ 0xE0001000) (0001ms, 0708ms total)
T2894 001:302 JLINK_IsHalted()  returns FALSE (0000ms, 0708ms total)
T2894 001:316 JLINK_IsHalted() -- CPU_ReadMem(2 bytes @ 0x20000000)  returns TRUE (0003ms, 0711ms total)
T2894 001:319 JLINK_ReadReg(R15 (PC))  returns 0x20000000 (0000ms, 0708ms total)
T2894 001:319 JLINK_ClrBPEx(BPHandle = 0x00000010)  returns 0x00 (0000ms, 0708ms total)
T2894 001:319 JLINK_ReadReg(R0)  returns 0x00000000 (0000ms, 0708ms total)
T2894 001:320 JLINK_WriteReg(R0, 0x0100F000)  returns 0x00 (0000ms, 0708ms total)
T2894 001:320 JLINK_WriteReg(R1, 0x00001000)  returns 0x00 (0000ms, 0708ms total)
T2894 001:320 JLINK_WriteReg(R2, 0x000000FF)  returns 0x00 (0000ms, 0708ms total)
T2894 001:320 JLINK_WriteReg(R3, 0x00000000)  returns 0x00 (0000ms, 0708ms total)
T2894 001:320 JLINK_WriteReg(R4, 0x00000000)  returns 0x00 (0000ms, 0708ms total)
T2894 001:320 JLINK_WriteReg(R5, 0x00000000)  returns 0x00 (0000ms, 0708ms total)
T2894 001:320 JLINK_WriteReg(R6, 0x00000000)  returns 0x00 (0000ms, 0708ms total)
T2894 001:320 JLINK_WriteReg(R7, 0x00000000)  returns 0x00 (0000ms, 0708ms total)
T2894 001:320 JLINK_WriteReg(R8, 0x00000000)  returns 0x00 (0000ms, 0708ms total)
T2894 001:320 JLINK_WriteReg(R9, 0x200006FC)  returns 0x00 (0000ms, 0708ms total)
T2894 001:320 JLINK_WriteReg(R10, 0x00000000)  returns 0x00 (0000ms, 0708ms total)
T2894 001:320 JLINK_WriteReg(R11, 0x00000000)  returns 0x00 (0000ms, 0708ms total)
T2894 001:320 JLINK_WriteReg(R12, 0x00000000)  returns 0x00 (0000ms, 0708ms total)
T2894 001:320 JLINK_WriteReg(R13 (SP), 0x20004000)  returns 0x00 (0000ms, 0708ms total)
T2894 001:320 JLINK_WriteReg(R14, 0x20000001)  returns 0x00 (0000ms, 0708ms total)
T2894 001:320 JLINK_WriteReg(R15 (PC), 0x2000055C)  returns 0x00 (0000ms, 0708ms total)
T2894 001:320 JLINK_WriteReg(XPSR, 0x01000000)  returns 0x00 (0000ms, 0708ms total)
T2894 001:320 JLINK_WriteReg(MSP, 0x20004000)  returns 0x00 (0000ms, 0708ms total)
T2894 001:320 JLINK_WriteReg(PSP, 0x20004000)  returns 0x00 (0000ms, 0708ms total)
T2894 001:320 JLINK_WriteReg(CFBP, 0x00000000)  returns 0x00 (0001ms, 0709ms total)
T2894 001:321 JLINK_SetBPEx(Addr = 0x20000000, Type = 0xFFFFFFF2)  returns 0x00000011 (0000ms, 0709ms total)
T2894 001:321 JLINK_Go() -- CPU_ReadMem(4 bytes @ 0xE0001000) (0001ms, 0710ms total)
T2894 001:322 JLINK_IsHalted()  returns FALSE (0000ms, 0710ms total)
T2894 001:324 JLINK_IsHalted() -- CPU_ReadMem(2 bytes @ 0x20000000)  returns TRUE (0002ms, 0712ms total)
T2894 001:326 JLINK_ReadReg(R15 (PC))  returns 0x20000000 (0000ms, 0710ms total)
T2894 001:326 JLINK_ClrBPEx(BPHandle = 0x00000011)  returns 0x00 (0000ms, 0710ms total)
T2894 001:326 JLINK_ReadReg(R0)  returns 0x00000000 (0000ms, 0710ms total)
T2894 001:327 JLINK_WriteReg(R0, 0x01010000)  returns 0x00 (0000ms, 0710ms total)
T2894 001:327 JLINK_WriteReg(R1, 0x00001000)  returns 0x00 (0000ms, 0710ms total)
T2894 001:327 JLINK_WriteReg(R2, 0x000000FF)  returns 0x00 (0000ms, 0710ms total)
T2894 001:327 JLINK_WriteReg(R3, 0x00000000)  returns 0x00 (0000ms, 0710ms total)
T2894 001:327 JLINK_WriteReg(R4, 0x00000000)  returns 0x00 (0000ms, 0710ms total)
T2894 001:327 JLINK_WriteReg(R5, 0x00000000)  returns 0x00 (0000ms, 0710ms total)
T2894 001:327 JLINK_WriteReg(R6, 0x00000000)  returns 0x00 (0000ms, 0710ms total)
T2894 001:327 JLINK_WriteReg(R7, 0x00000000)  returns 0x00 (0000ms, 0710ms total)
T2894 001:327 JLINK_WriteReg(R8, 0x00000000)  returns 0x00 (0000ms, 0710ms total)
T2894 001:327 JLINK_WriteReg(R9, 0x200006FC)  returns 0x00 (0000ms, 0710ms total)
T2894 001:327 JLINK_WriteReg(R10, 0x00000000)  returns 0x00 (0000ms, 0710ms total)
T2894 001:327 JLINK_WriteReg(R11, 0x00000000)  returns 0x00 (0000ms, 0710ms total)
T2894 001:327 JLINK_WriteReg(R12, 0x00000000)  returns 0x00 (0000ms, 0710ms total)
T2894 001:327 JLINK_WriteReg(R13 (SP), 0x20004000)  returns 0x00 (0000ms, 0710ms total)
T2894 001:327 JLINK_WriteReg(R14, 0x20000001)  returns 0x00 (0000ms, 0710ms total)
